# Hz S RI R 50
2300000000.0	-0.9600880616873174	-0.011251952369418287
2303000000.0	-0.9328235826671986	-0.22658739761635013
2306000000.0	-0.9649044712868022	-0.007538741112576007
2309000000.0	-0.9389601901474253	-0.16677898518858128
2312000000.0	-0.9554522694088051	-0.12385504208072755
2315000000.0	-0.9580238630100253	-0.13180687307720457
2318000000.0	-0.9199278729992576	-0.2814309695340855
2321000000.0	-0.9545272250736144	-0.03730654122807554
2324000000.0	-0.9647372400093392	-0.0565943955184167
2327000000.0	-0.9542989225367953	-0.19655995145415742
2330000000.0	-0.9618335860511488	-0.15538008350010582
2333000000.0	-0.9591780667361229	-0.1167257965490485
2336000000.0	-0.9452796759154357	0.01107840240247075
2339000000.0	-0.9616367994365589	-0.0037565481676405926
2342000000.0	-0.9633546413574224	-0.03765155010878534
2345000000.0	-0.9593814196867658	-0.11294911125007925
2348000000.0	-0.9664673430093901	-0.14067070576689153
2351000000.0	-0.937670307032009	-0.14772046333539715
2354000000.0	-0.9474204909984316	-0.10779035004787561
2357000000.0	-0.951537185734726	-0.17284995152910848
2360000000.0	-0.9453194322228936	-0.11129357680479773
2363000000.0	-0.9533117889849848	0.06807852715871045
2366000000.0	-0.9473769228794336	-0.11153580761758314
2369000000.0	-0.9467643697039246	-0.08156640345060988
2372000000.0	-0.9594681916932041	-0.11676110288880713
2375000000.0	-0.9457909874727765	-0.14521577836849078
2378000000.0	-0.9547010244918056	-0.07474083775024395
2381000000.0	-0.9508612183530489	-0.130821421846133
2384000000.0	-0.9440829746997953	-0.19830327418139315
2387000000.0	-0.9571271771523414	-0.0899977440129966
2390000000.0	-0.965967128991193	-0.06803417224844699
2393000000.0	-0.9452043573255979	-0.17551647683112762
2396000000.0	-0.9674856094023319	-0.1524175623558078
2399000000.0	-0.9498095478146041	-0.17637162186246577
2402000000.0	-0.9616546033999839	-0.007513350088512727
2405000000.0	-0.9691951626861569	-0.12948817531909596
2408000000.0	-0.9590148827072648	-0.11670593810314157
2411000000.0	-0.9580432347684465	-0.13180953828315786
2414000000.0	-0.9704330759266645	-0.1841257096064222
2417000000.0	-0.964952728398546	-0.1327601604806769
2420000000.0	-0.9765671299489498	-0.12659215624588252
2423000000.0	-0.9767914052261836	-0.07263227024493393
2426000000.0	-0.9745553523770072	-0.1770312794352114
2429000000.0	-0.9852806442777283	-0.06552750575955794
2432000000.0	-0.9834041697455996	-0.10799472349051623
2435000000.0	-0.9922813274090679	-0.12075425028920657
2438000000.0	-0.971748463210858	0.10671472606623135
2441000000.0	-0.9898872289847693	-0.12438894250636735
2444000000.0	-0.9728107706089131	-0.11067906435480711
2447000000.0	-0.9654324729187386	-0.1831769171547487
2450000000.0	-0.9764396129289493	-0.15382817495571555
2453000000.0	-0.9877248432555978	-0.13589319439408412
2456000000.0	-0.9604758029154151	-0.1706006084062723
2459000000.0	-0.9893739204845917	-0.03479826848216183
2462000000.0	-0.9788234981751531	-0.02294620415047915
2465000000.0	-0.9689980497157736	-0.17602177659073368
2468000000.0	-0.9690906749056099	-0.12947421535255277
2471000000.0	-0.9778673808423426	-0.1579702741626169
2474000000.0	-0.979564089473089	-0.12309173978508219
2477000000.0	-0.9944983279358096	-0.011655230664708518
2480000000.0	-0.9767384439065652	0.045819830579015765
2483000000.0	-0.9972895047854737	0.011687942444202765
2486000000.0	-0.9579240385729515	-0.21001808876632938
2489000000.0	-1.0065146059896977	-0.07879717621500555
2492000000.0	-0.9311660556380273	-0.3139689907397141
2495000000.0	-0.7257655648727613	-0.6698543558461214
2498000000.0	-0.7589440386172935	-0.6423532980410346
2501000000.0	-0.6038810649987284	-0.7589316002494156
2504000000.0	-0.4759189689437965	-0.8469473905701678
2507000000.0	-0.6046650697223906	-0.7660397751734406
2510000000.0	-0.596561240983447	-0.761874074738692
2513000000.0	-0.5999176398907563	-0.7786167074005802
2516000000.0	-0.535041869042926	-0.8195777832856798
2519000000.0	-0.4367254634715481	-0.8963994647947715
2522000000.0	-0.6211773232955524	-0.7441818967528636
2525000000.0	-0.9065501817822397	-0.30074717752696606
2528000000.0	-0.9497557738274487	-0.05199348661212007
2531000000.0	-0.7640259603266852	-0.5839334367088383
2534000000.0	-0.5517565876789745	-0.7706975937947761
2537000000.0	-0.6592017254208796	-0.7413630801046914
2540000000.0	-0.6282585646682081	-0.7526653545972518
2543000000.0	-0.5911114307506489	-0.742883276305834
2546000000.0	-0.5072305684648831	-0.8327082399088777
2549000000.0	-0.19953170288897856	-0.9483486216673195
2552000000.0	-0.16941591280608445	-0.954482680735834
2555000000.0	0.12104225070763401	-0.963254254990755
2558000000.0	-0.19475674121389372	-0.9256538405497556
2561000000.0	-0.08027362176853006	-0.977803979305028
2564000000.0	-0.27155394774078145	-0.9267297973654699
2567000000.0	-0.635086649920994	-0.8377181292517918
2570000000.0	-0.5749796975390239	-0.796543354047105
2573000000.0	-0.6365175022064009	-0.6882962439131327
2576000000.0	-0.5673567310373898	-0.8124369770591007
2579000000.0	-0.566555647695267	-0.7235536441560207
2582000000.0	-0.6173333292957155	-0.7514333609021022
2585000000.0	-0.7273612062887544	-0.5928131938747846
2588000000.0	-0.8429488084266237	-0.19364686345234097
2591000000.0	-0.32282517285923146	-0.7499703515732288
2594000000.0	-0.49143959902175316	-0.7588953171421874
2597000000.0	-0.7928803385344096	-0.5959662659938002
2600000000.0	-1.0074540158331011	-0.25306694275192243
