# Hz S RI R 50
2300000000.0	-0.9849376496034322	-0.02308953598420644
2303000000.0	-0.9591023825470061	0.21715861377562198
2306000000.0	-0.965147564052536	-0.02262560418679581
2309000000.0	-0.9542508141032422	-0.15021317561664393
2312000000.0	-0.9722085989864315	-3.393415098257016e-12
2315000000.0	-0.9676188760122997	0.04918095123594755
2318000000.0	-0.9572355765872724	0.15847665889183685
2321000000.0	-0.9752164758884051	0.08018105136437949
2324000000.0	-0.9637815449096141	-0.05276131426324351
2327000000.0	-0.9853677165483151	-0.05008306765204436
2330000000.0	-0.9789708952149757	-0.08819503002640686
2333000000.0	-0.9700841935319816	0.026533308796146345
2336000000.0	-0.9841195466619097	-0.019224221996532957
2339000000.0	-0.9754633741413359	0.011432146558898244
2342000000.0	-0.9832000098971538	-0.06924790381210859
2345000000.0	-0.9928363499681201	0.023274702349820497
2348000000.0	-0.9781170875298214	0.06505108312703886
2351000000.0	-0.9897990219564012	-0.06971267978248932
2354000000.0	-0.9882748976273197	-0.061849966653436644
2357000000.0	-0.9774690853202082	0.007636907693111649
2360000000.0	-0.977986399728625	0.04683561874527123
2363000000.0	-0.9678680935078671	-0.011343132074192741
2366000000.0	-0.9843841174630078	-0.011536695059680814
2369000000.0	-0.9725246515281527	0.018997722243031184
2372000000.0	-0.9734009089262098	-0.04947483334783373
2375000000.0	-0.9729387546137732	-0.007601512492767852
2378000000.0	-0.9737187906068748	0.011411700534534039
2381000000.0	-0.9853675001752529	0.011548220028883154
2384000000.0	-0.9881429177148655	0.01544154599859024
2387000000.0	-0.9816882275052107	-0.04220941783185508
2390000000.0	-0.9838735891874371	0.04615454776381505
2393000000.0	-0.9693578913028613	0.011360592065231887
2396000000.0	-0.9863094642037147	0.003852929729830787
2399000000.0	-0.9899808484500465	0.00374641826350523
2402000000.0	-0.9878048270179991	-0.011576784777328044
2405000000.0	-0.9851442349768571	0.007696873179835399
2408000000.0	-0.9840177727103557	-0.03460988200299875
2411000000.0	-0.9904346506399169	0.019347584001908082
2414000000.0	-0.969589177596939	0.0606805438808623
2417000000.0	-0.990178531455954	0.06973940907333388
2420000000.0	-1.0022140732448732	-0.027412110877246647
2423000000.0	-0.9882350258922701	-0.015442985357849414
2426000000.0	-0.9954323749957154	-0.015555457149252066
2429000000.0	-0.9987928895446901	0.0117055616862224
2432000000.0	-0.9796655315382602	0.007654068403315536
2435000000.0	-0.9716745566522602	0.14142862317505364
2438000000.0	-0.9913633559531168	-5.190470534460145e-12
2441000000.0	-1.0035446818544402	-0.043149174645687995
2444000000.0	-1.0019510080208105	-3.4972285596695354e-12
2447000000.0	-0.9936506016555594	0.07779008977123712
2450000000.0	-0.9985132128351651	-0.015603600903272482
2453000000.0	-0.9918292280415284	-0.015499151360580998
2456000000.0	-1.00038011083132	0.06653171748130489
2459000000.0	-0.9923988918812273	0.011630625879052909
2462000000.0	-0.9975340944057628	0.007793674419913491
2465000000.0	-0.9861198656199129	-0.10050222750510582
2468000000.0	-0.9905955480034427	-0.06199520169583826
2471000000.0	-0.9519674086629556	0.26700124509282247
2474000000.0	-0.9948399563459112	0.09354384022184693
2477000000.0	-0.9816975767955589	-0.03836846154374945
2480000000.0	-0.9762904824536633	0.019071285636142916
2483000000.0	-0.993104596881342	-0.031045743989753075
2486000000.0	-0.9729083665338644	6.7920726007501664e-12
2489000000.0	-0.9881847190976385	-0.10168785125360073
2492000000.0	-0.9904699998027764	0.08533176594710672
2495000000.0	-0.9886414061879134	0.030906218838807613
2498000000.0	-0.9608593709241767	-0.21755642861691515
2501000000.0	-0.9773182005399544	0.2212830137004262
2504000000.0	-0.9880825459062028	-0.07735418246551702
2507000000.0	-1.0149158645963352	-0.10744447977540401
2510000000.0	-0.9951978688346191	-0.05838130785562868
2513000000.0	-1.0012712291758434	0.035216720729874924
2516000000.0	-1.0205370508258331	-0.03190331825395083
2519000000.0	-1.0064689666677753	-0.011795523054501806
2522000000.0	-0.9812218910819833	-0.23834358276205767
2525000000.0	-0.9754252665401316	-0.02286654063437656
2528000000.0	-0.9905855193738992	-0.0853417182888316
2531000000.0	-0.9317866643840669	0.36702045370246295
2534000000.0	-0.855594341107678	0.5030129357268599
2537000000.0	-0.9880647965864582	0.003859786778829635
2540000000.0	-0.9613252572478717	-0.2494800491645641
2543000000.0	-1.0178298025857537	-0.015905458040126892
2546000000.0	-0.9745417213515475	-0.10702147394255626
2549000000.0	-1.0010318706366148	0.039124119004253735
2552000000.0	-0.9954772729737585	-0.18875159111052198
2555000000.0	-0.952797702773239	-0.2872943431548144
2558000000.0	-0.9737633278474624	-0.14173264681019965
2561000000.0	-0.7026072056002771	-0.7306041842317456
2564000000.0	-0.5377125238559527	-0.890561484333373
2567000000.0	-0.9207243110589856	-0.5559245507273465
2570000000.0	-0.9928484519554521	-0.05824348396848816
2573000000.0	-0.9537750431059064	-0.165569694032326
2576000000.0	-0.9898097591930279	0.07360028920590644
2579000000.0	-0.8365478372051617	-0.2240884708661379
2582000000.0	-0.9416931528594497	-0.5437762099007134
2585000000.0	-0.2207784173026476	-0.8673659253076453
2588000000.0	-0.4542515868038609	-0.7201602689757901
2591000000.0	-0.9048798501452245	-0.4934631938433575
2594000000.0	0.12944323154907408	-1.0329121875325789
2597000000.0	0.3459267222578511	-1.003240417058061
2600000000.0	0.1850436440629198	-1.0425287124237397
